# MHz S MA R 50
!   freq        S11       
2000.000000  0.20921  145.54
2010.101010  0.19328  135.16
2020.202020  0.17440  124.34
2030.303030  0.15521  116.11
2040.404040  0.13812  104.57
2050.505051  0.11575   94.15
2060.606061  0.09789   83.24
2070.707071  0.06793   69.02
2080.808081  0.04636   55.38
2090.909091  0.02458   33.89
2101.010101  0.01003  -45.05
2111.111111  0.02565 -113.44
2121.212121  0.04590 -139.51
2131.313131  0.06489 -154.92
2141.414141  0.08550 -168.20
2151.515152  0.09900  177.97
2161.616162  0.11013  164.49
2171.717172  0.12148  153.31
2181.818182  0.12586  141.40
2191.919192  0.12691  127.02
2202.020202  0.12264  115.64
2212.121212  0.11892  106.17
2222.222222  0.11969   93.50
2232.323232  0.11466   79.65
2242.424242  0.11195   66.48
2252.525253  0.10255   51.74
2262.626263  0.09041   37.10
2272.727273  0.08115   19.42
2282.828283  0.07499    0.53
2292.929293  0.06293  -16.84
2303.030303  0.05248  -38.31
2313.131313  0.04832  -63.78
2323.232323  0.04392  -89.73
2333.333333  0.04191 -119.20
2343.434343  0.04234 -150.58
2353.535354  0.04573 -175.87
2363.636364  0.04981  153.38
2373.737374  0.04678  126.42
2383.838384  0.04117   95.04
2393.939394  0.02342   64.38
2404.040404  0.00163  127.04
2414.141414  0.01853 -172.16
2424.242424  0.03377  158.79
2434.343434  0.04486  136.36
2444.444444  0.05290  118.32
2454.545455  0.05808  101.45
2464.646465  0.06136   83.21
2474.747475  0.06832   66.93
2484.848485  0.06753   50.38
2494.949495  0.07755   38.87
2505.050505  0.07948   22.27
2515.151515  0.08259    7.26
2525.252525  0.08413   -3.41
2535.353535  0.08744  -13.75
2545.454545  0.09372  -22.78
2555.555556  0.09429  -33.30
2565.656566  0.10382  -41.55
2575.757576  0.10220  -55.30
2585.858586  0.10488  -63.58
2595.959596  0.10648  -73.68
2606.060606  0.10664  -81.42
2616.161616  0.10814  -91.05
2626.262626  0.10802  -98.34
2636.363636  0.10431 -105.50
2646.464646  0.09909 -111.99
2656.565657  0.09421 -119.19
2666.666667  0.09148 -125.76
2676.767677  0.08828 -127.48
2686.868687  0.08247 -132.78
2696.969697  0.07817 -133.97
2707.070707  0.07372 -135.26
2717.171717  0.07045 -133.37
2727.272727  0.06691 -130.29
2737.373737  0.06745 -123.20
2747.474747  0.07129 -119.21
2757.575758  0.08423 -116.90
2767.676768  0.09655 -115.81
2777.777778  0.10701 -118.40
2787.878788  0.12339 -120.29
2797.979798  0.13830 -124.53
2808.080808  0.15029 -130.35
2818.181818  0.16568 -137.48
2828.282828  0.18128 -143.62
2838.383838  0.19243 -151.24
2848.484848  0.19966 -159.02
2858.585859  0.21027 -167.26
2868.686869  0.21711 -175.83
2878.787879  0.22266  176.06
2888.888889  0.22247  167.59
2898.989899  0.22217  160.41
2909.090909  0.21699  151.64
2919.191919  0.21137  143.68
2929.292929  0.20469  134.48
2939.393939  0.19014  127.12
2949.494949  0.18473  120.11
2959.595960  0.16861  112.86
2969.696970  0.15683  106.05
2979.797980  0.14290   98.65
2989.898990  0.12422   89.98
3000.000000  0.10886   80.15
